T4680 27573:360 SEGGER J-Link V6.46 Log File (0000ms, 680610ms total)
T4680 27573:360 DLL Compiled: May 23 2019 17:49:56 (0000ms, 680610ms total)
T4680 27573:360 Logging started @ 2019-10-26 22:57 (0000ms, 680610ms total)
T4680 27573:360 JLINK_SetWarnOutHandler(...) (0000ms, 680610ms total)
T4680 27573:360 JLINK_OpenEx(...)
Firmware: J-Link OB-STM32F072-CortexM compiled Jan  7 2019 14:09:37
Hardware: V1.00
Feature(s): GDB, RDI, FlashBP, FlashDL, JFlash, RDDI
TELNET listener socket opened on port 19021WEBSRV 
Starting webserver (0212ms, 680822ms total)
T4680 27573:360 WEBSRV Webserver running on local port 19080 (0215ms, 680825ms total)
T4680 27573:360   returns O.K. (0215ms, 680825ms total)
T4680 27573:575 JLINK_GetEmuCaps()  returns 0xB8EA5A33 (0000ms, 680825ms total)
T4680 27573:576 JLINK_TIF_GetAvailable(...) (0000ms, 680825ms total)
T4680 27573:576 JLINK_SetErrorOutHandler(...) (0001ms, 680826ms total)
T4680 27573:577 JLINK_ExecCommand("ProjectFile = "C:\Users\Administrator\Desktop\husky·É¿Ø\ano·É¿Ø\JLinkSettings.ini"", ...).   returns 0x00 (0003ms, 680829ms total)
T4680 27573:581 JLINK_ExecCommand("Device = STM32F407VGTx", ...). Device "STM32F407VG" selected.  returns 0x00 (0003ms, 680832ms total)
T4680 27573:584 JLINK_ExecCommand("DisableConnectionTimeout", ...).   returns 0x01 (0000ms, 680832ms total)
T4680 27573:584 JLINK_GetHardwareVersion()  returns 0x2710 (0000ms, 680832ms total)
T4680 27573:584 JLINK_GetDLLVersion()  returns 64600 (0000ms, 680832ms total)
T4680 27573:584 JLINK_GetFirmwareString(...) (0000ms, 680832ms total)
T4680 27573:584 JLINK_GetDLLVersion()  returns 64600 (0000ms, 680832ms total)
T4680 27573:584 JLINK_GetCompileDateTime() (0000ms, 680832ms total)
T4680 27573:584 JLINK_GetFirmwareString(...) (0000ms, 680832ms total)
T4680 27573:584 JLINK_GetHardwareVersion()  returns 0x2710 (0000ms, 680832ms total)
T4680 27573:584 JLINK_TIF_Select(JLINKARM_TIF_SWD)  returns 0x00 (0002ms, 680834ms total)
T4680 27573:586 JLINK_SetSpeed(10000) (0000ms, 680834ms total)
T4680 27573:586 JLINK_GetId() >0x10B TIF>Found SW-DP with ID 0x2BA01477 >0x0D TIF> >0x28 TIF> >0x0D TIF> >0x28 TIF> >0x0D TIF> >0x28 TIF> >0x0D TIF> >0x28 TIF> >0x0D TIF> >0x21 TIF> >0x0D TIF> >0x28 TIF> >0x0D TIF> >0x28 TIF> >0x0D TIF> >0x28 TIF> >0x0D TIF> >0x21 TIF> >0x0D TIF> >0x21 TIF> >0x0D TIF> >0x28 TIF> >0x0D TIF> >0x21 TIF> >0x0D TIF> >0x21 TIF> >0x0D TIF> >0x28 TIF> >0x0D TIF> >0x21 TIF> >0x0D TIF> >0x21 TIF> >0x0D TIF> >0x28 TIF> >0x0D TIF> >0x21 TIF> >0x0D TIF> >0x21 TIF> >0x0D TIF>
 >0x28 TIF> >0x0D TIF> >0x21 TIF> >0x0D TIF> >0x21 TIF> >0x0D TIF> >0x28 TIF> >0x0D TIF> >0x21 TIF> >0x0D TIF> >0x21 TIF> >0x10B TIF>Found SW-DP with ID 0x2BA01477 >0x0D TIF> >0x28 TIF> >0x0D TIF> >0x28 TIF> >0x0D TIF> >0x28 TIF> >0x0D TIF> >0x28 TIF> >0x0D TIF> >0x21 TIF> >0x0D TIF> >0x28 TIF>Scanning AP map to find all available APs >0x0D TIF> >0x28 TIF> >0x0D TIF> >0x21 TIF> >0x0D TIF> >0x21 TIF> >0x0D TIF> >0x28 TIF> >0x0D TIF> >0x21 TIF> >0x0D TIF> >0x21 TIF>
AP[1]: Stopped AP scan as end of AP map has been reachedAP[0]: AHB-AP (IDR: 0x24770011)Iterating through AP map to find AHB-AP to use >0x42 TIF> >0x28 TIF> >0x0D TIF> >0x28 TIF> >0x0D TIF> >0x21 TIF> >0x0D TIF> >0x21 TIF> >0x42 TIF> >0x28 TIF> >0x0D TIF> >0x28 TIF> >0x0D TIF> >0x28 TIF> >0x0D TIF> >0x21 TIF> >0x0D TIF> >0x21 TIF>AP[0]: Core foundAP[0]: AHB-AP ROM base: 0xE00FF000 >0x0D TIF> >0x28 TIF> >0x0D TIF> >0x28 TIF> >0x0D TIF> >0x28 TIF> >0x0D TIF> >0x21 TIF> >0x0D TIF> >0x21 TIF>
CPUID register: 0x410FC241. Implementer code: 0x41 (ARM)Found Cortex-M4 r0p1, Little endian. -- Max. mem block: 0x00002458 -- CPU_ReadMem(4 bytes @ 0xE000EDF0) -- CPU_WriteMem(4 bytes @ 0xE000EDF0) -- CPU_ReadMem(4 bytes @ 0xE0002000)FPUnit: 6 code (BP) slots and 2 literal slots -- CPU_ReadMem(4 bytes @ 0xE000EDFC) -- CPU_WriteMem(4 bytes @ 0xE000EDFC) -- CPU_ReadMem(4 bytes @ 0xE0001000) -- CPU_WriteMem(4 bytes @ 0xE0001000) -- CPU_ReadMem(4 bytes @ 0xE000ED88) -- CPU_WriteMem(4 bytes @ 0xE000ED88)
 -- CPU_ReadMem(4 bytes @ 0xE000ED88) -- CPU_WriteMem(4 bytes @ 0xE000ED88)CoreSight components:ROMTbl[0] @ E00FF000 -- CPU_ReadMem(16 bytes @ 0xE00FF000) -- CPU_ReadMem(16 bytes @ 0xE000EFF0) -- CPU_ReadMem(16 bytes @ 0xE000EFE0)ROMTbl[0][0]: E000E000, CID: B105E00D, PID: 000BB00C SCS-M7 -- CPU_ReadMem(16 bytes @ 0xE0001FF0) -- CPU_ReadMem(16 bytes @ 0xE0001FE0)ROMTbl[0][1]: E0001000, CID: B105E00D, PID: 003BB002 DWT -- CPU_ReadMem(16 bytes @ 0xE0002FF0) -- CPU_ReadMem(16 bytes @ 0xE0002FE0)
ROMTbl[0][2]: E0002000, CID: B105E00D, PID: 002BB003 FPB -- CPU_ReadMem(16 bytes @ 0xE0000FF0) -- CPU_ReadMem(16 bytes @ 0xE0000FE0)ROMTbl[0][3]: E0000000, CID: B105E00D, PID: 003BB001 ITM -- CPU_ReadMem(16 bytes @ 0xE00FF010) -- CPU_ReadMem(16 bytes @ 0xE0040FF0) -- CPU_ReadMem(16 bytes @ 0xE0040FE0)ROMTbl[0][4]: E0040000, CID: B105900D, PID: 000BB9A1 TPIU -- CPU_ReadMem(16 bytes @ 0xE0041FF0) -- CPU_ReadMem(16 bytes @ 0xE0041FE0)ROMTbl[0][5]: E0041000, CID: B105900D, PID: 000BB925 ETM >0x0D TIF>
 >0x21 TIF>  returns 0x2BA01477 (0170ms, 681004ms total)
T4680 27573:756 JLINK_GetDLLVersion()  returns 64600 (0000ms, 681004ms total)
T4680 27573:756 JLINK_CORE_GetFound()  returns 0xE0000FF (0000ms, 681004ms total)
T4680 27573:756 JLINK_GetDebugInfo(0x100 = JLINKARM_ROM_TABLE_ADDR_INDEX) -- Value=0xE00FF000  returns 0x00 (0000ms, 681004ms total)
T4680 27573:756 JLINK_GetDebugInfo(0x100 = JLINKARM_ROM_TABLE_ADDR_INDEX) -- Value=0xE00FF000  returns 0x00 (0000ms, 681004ms total)
T4680 27573:756 JLINK_GetDebugInfo(0x101 = JLINKARM_DEBUG_INFO_ETM_ADDR_INDEX) -- Value=0xE0041000  returns 0x00 (0000ms, 681004ms total)
T4680 27573:756 JLINK_ReadMemEx(0xE0041FD0, 0x0020 Bytes, ..., Flags = 0x02000004) -- CPU_ReadMem(32 bytes @ 0xE0041FD0) - Data: 04 00 00 00 00 00 00 00 00 00 00 00 00 00 00 00 ...  returns 0x20 (0001ms, 681005ms total)
T4680 27573:757 JLINK_GetDebugInfo(0x102 = JLINKARM_DEBUG_INFO_MTB_ADDR_INDEX) -- Value=0x00000000  returns 0x00 (0000ms, 681005ms total)
T4680 27573:757 JLINK_GetDebugInfo(0x103 = JLINKARM_DEBUG_INFO_TPIU_ADDR_INDEX) -- Value=0xE0040000  returns 0x00 (0000ms, 681005ms total)
T4680 27573:757 JLINK_GetDebugInfo(0x104 = JLINKARM_DEBUG_INFO_ITM_ADDR_INDEX) -- Value=0xE0000000  returns 0x00 (0000ms, 681005ms total)
T4680 27573:757 JLINK_GetDebugInfo(0x105 = JLINKARM_DEBUG_INFO_DWT_ADDR_INDEX) -- Value=0xE0001000  returns 0x00 (0000ms, 681005ms total)
T4680 27573:757 JLINK_GetDebugInfo(0x106 = JLINKARM_DEBUG_INFO_FPB_ADDR_INDEX) -- Value=0xE0002000  returns 0x00 (0000ms, 681005ms total)
T4680 27573:757 JLINK_GetDebugInfo(0x107 = JLINKARM_DEBUG_INFO_NVIC_ADDR_INDEX) -- Value=0xE000E000  returns 0x00 (0000ms, 681005ms total)
T4680 27573:757 JLINK_GetDebugInfo(0x10C = JLINKARM_DEBUG_INFO_DBG_ADDR_INDEX) -- Value=0xE000EDF0  returns 0x00 (0000ms, 681005ms total)
T4680 27573:757 JLINK_GetDebugInfo(0x01 = Unknown) -- Value=0x00000001  returns 0x00 (0000ms, 681005ms total)
T4680 27573:757 JLINK_ReadMemU32(0xE000ED00, 0x0001 Items, ...) -- CPU_ReadMem(4 bytes @ 0xE000ED00) - Data: 41 C2 0F 41  returns 1 (0001ms, 681006ms total)
T4680 27573:758 JLINK_GetDebugInfo(0x10F = JLINKARM_DEBUG_INFO_HAS_CORTEX_M_SECURITY_EXT_INDEX) -- Value=0x00000000  returns 0x00 (0000ms, 681006ms total)
T4680 27573:758 JLINK_SetResetType(JLINKARM_CM3_RESET_TYPE_NORMAL)  returns JLINKARM_CM3_RESET_TYPE_NORMAL (0000ms, 681006ms total)
T4680 27573:758 JLINK_Reset() -- CPU is running -- CPU_WriteMem(4 bytes @ 0xE000EDF0) -- CPU is running -- CPU_WriteMem(4 bytes @ 0xE000EDFC)Reset: Halt core after reset via DEMCR.VC_CORERESET. >0x35 TIF>Reset: Reset device via AIRCR.SYSRESETREQ. -- CPU is running -- CPU_WriteMem(4 bytes @ 0xE000ED0C) >0x0D TIF> >0x28 TIF> -- CPU_ReadMem(4 bytes @ 0xE000EDF0) -- CPU_ReadMem(4 bytes @ 0xE000EDF0) -- CPU is running -- CPU_WriteMem(4 bytes @ 0xE000EDF0) -- CPU is running
 -- CPU_WriteMem(4 bytes @ 0xE000EDFC) -- CPU_ReadMem(4 bytes @ 0xE000EDF0) -- CPU_WriteMem(4 bytes @ 0xE0002000) -- CPU_ReadMem(4 bytes @ 0xE000EDFC) -- CPU_ReadMem(4 bytes @ 0xE0001000) (0071ms, 681077ms total)
T4680 27573:829 JLINK_ReadReg(R15 (PC))  returns 0x08000268 (0000ms, 681077ms total)
T4680 27573:829 JLINK_ReadReg(XPSR)  returns 0x01000000 (0001ms, 681078ms total)
T4680 27573:830 JLINK_Halt()  returns 0x00 (0000ms, 681078ms total)
T4680 27573:830 JLINK_ReadMemU32(0xE000EDF0, 0x0001 Items, ...) -- CPU_ReadMem(4 bytes @ 0xE000EDF0) - Data: 03 00 03 00  returns 1 (0000ms, 681078ms total)
T4680 27573:830 JLINK_WriteU32(0xE000EDF0, 0xA05F0003) -- CPU_WriteMem(4 bytes @ 0xE000EDF0)  returns 0 (0001ms, 681079ms total)
T4680 27573:831 JLINK_WriteU32(0xE000EDFC, 0x01000000) -- CPU_WriteMem(4 bytes @ 0xE000EDFC)  returns 0 (0001ms, 681080ms total)
T4680 27573:832 JLINK_GetHWStatus(...)  returns 0x00 (0000ms, 681080ms total)
T4680 27573:832 JLINK_GetNumBPUnits(Type = 0xFFFFFF00)  returns 0x06 (0000ms, 681080ms total)
T4680 27573:832 JLINK_GetNumBPUnits(Type = 0xF0)  returns 0x2000 (0000ms, 681080ms total)
T4680 27573:832 JLINK_GetNumWPUnits()  returns 0x04 (0000ms, 681080ms total)
T4680 27573:832 JLINK_GetSpeed()  returns 0x7D0 (0000ms, 681080ms total)
T4680 27573:832 JLINK_ReadMemU32(0xE000E004, 0x0001 Items, ...) -- CPU_ReadMem(4 bytes @ 0xE000E004) - Data: 02 00 00 00  returns 1 (0001ms, 681081ms total)
T4680 27573:833 JLINK_ReadMemU32(0xE000E004, 0x0001 Items, ...) -- CPU_ReadMem(4 bytes @ 0xE000E004) - Data: 02 00 00 00  returns 1 (0001ms, 681082ms total)
T4680 27573:834 JLINK_WriteMemEx(0xE0001000, 0x001C Bytes, ..., Flags = 0x02000004) - Data: 01 00 00 00 00 00 00 00 00 00 00 00 00 00 00 00 ... -- CPU_WriteMem(28 bytes @ 0xE0001000)  returns 0x1C (0002ms, 681084ms total)
T4680 27573:836 JLINK_ReadReg(R15 (PC))  returns 0x08000268 (0000ms, 681084ms total)
T4680 27573:836 JLINK_ReadReg(XPSR)  returns 0x01000000 (0000ms, 681084ms total)
T4680 27573:851 JLINK_ReadMemEx(0xE0001004, 0x0004 Bytes, ..., Flags = 0x02000000) - Data: 00 00 00 00  returns 0x04 (0000ms, 681084ms total)
T4680 27573:974 JLINK_SetResetType(JLINKARM_CM3_RESET_TYPE_NORMAL)  returns JLINKARM_CM3_RESET_TYPE_NORMAL (0000ms, 681084ms total)
T4680 27573:974 JLINK_Reset() -- CPU_WriteMem(4 bytes @ 0xE000EDF0) -- CPU_WriteMem(4 bytes @ 0xE000EDFC)Reset: Halt core after reset via DEMCR.VC_CORERESET. >0x35 TIF>Reset: Reset device via AIRCR.SYSRESETREQ. -- CPU_WriteMem(4 bytes @ 0xE000ED0C) >0x0D TIF> >0x28 TIF> -- CPU_ReadMem(4 bytes @ 0xE000EDF0) -- CPU_ReadMem(4 bytes @ 0xE000EDF0) -- CPU_WriteMem(4 bytes @ 0xE000EDF0) -- CPU_WriteMem(4 bytes @ 0xE000EDFC) -- CPU_ReadMem(4 bytes @ 0xE000EDF0) -- CPU_WriteMem(4 bytes @ 0xE0002000)
 -- CPU_ReadMem(4 bytes @ 0xE000EDFC) -- CPU_ReadMem(4 bytes @ 0xE0001000) (0071ms, 681155ms total)
T4680 27574:045 JLINK_ReadReg(R15 (PC))  returns 0x08000268 (0000ms, 681155ms total)
T4680 27574:045 JLINK_ReadReg(XPSR)  returns 0x01000000 (0000ms, 681155ms total)
T4680 27578:201 JLINK_ReadReg(R0)  returns 0x00000000 (0001ms, 681156ms total)
T4680 27578:202 JLINK_ReadReg(R1)  returns 0x00000000 (0000ms, 681156ms total)
T4680 27578:202 JLINK_ReadReg(R2)  returns 0x00000000 (0000ms, 681156ms total)
T4680 27578:202 JLINK_ReadReg(R3)  returns 0x00000000 (0000ms, 681156ms total)
T4680 27578:202 JLINK_ReadReg(R4)  returns 0x00000000 (0000ms, 681156ms total)
T4680 27578:202 JLINK_ReadReg(R5)  returns 0x00000000 (0000ms, 681156ms total)
T4680 27578:202 JLINK_ReadReg(R6)  returns 0x00000000 (0000ms, 681156ms total)
T4680 27578:202 JLINK_ReadReg(R7)  returns 0x00000000 (0000ms, 681156ms total)
T4680 27578:202 JLINK_ReadReg(R8)  returns 0x00000000 (0000ms, 681156ms total)
T4680 27578:202 JLINK_ReadReg(R9)  returns 0x00000000 (0000ms, 681156ms total)
T4680 27578:202 JLINK_ReadReg(R10)  returns 0x00000000 (0000ms, 681156ms total)
T4680 27578:202 JLINK_ReadReg(R11)  returns 0x00000000 (0000ms, 681156ms total)
T4680 27578:202 JLINK_ReadReg(R12)  returns 0x00000000 (0000ms, 681156ms total)
T4680 27578:202 JLINK_ReadReg(R13 (SP))  returns 0x20003778 (0000ms, 681156ms total)
T4680 27578:202 JLINK_ReadReg(R14)  returns 0xFFFFFFFF (0000ms, 681156ms total)
T4680 27578:202 JLINK_ReadReg(R15 (PC))  returns 0x08000268 (0000ms, 681156ms total)
T4680 27578:202 JLINK_ReadReg(XPSR)  returns 0x01000000 (0000ms, 681156ms total)
T4680 27578:202 JLINK_ReadReg(MSP)  returns 0x20003778 (0000ms, 681156ms total)
T4680 27578:202 JLINK_ReadReg(PSP)  returns 0x00000000 (0000ms, 681156ms total)
T4680 27578:202 JLINK_ReadReg(CFBP)  returns 0x00000000 (0000ms, 681156ms total)
T4680 27578:202 JLINK_ReadReg(FPSCR)  returns 0x00000000 (0008ms, 681164ms total)
T4680 27578:210 JLINK_ReadReg(FPS0)  returns 0x00000000 (0000ms, 681164ms total)
T4680 27578:210 JLINK_ReadReg(FPS1)  returns 0x00000000 (0000ms, 681164ms total)
T4680 27578:210 JLINK_ReadReg(FPS2)  returns 0x00000000 (0000ms, 681164ms total)
T4680 27578:210 JLINK_ReadReg(FPS3)  returns 0x00000000 (0000ms, 681164ms total)
T4680 27578:210 JLINK_ReadReg(FPS4)  returns 0x00000000 (0000ms, 681164ms total)
T4680 27578:210 JLINK_ReadReg(FPS5)  returns 0x00000000 (0000ms, 681164ms total)
T4680 27578:210 JLINK_ReadReg(FPS6)  returns 0x00000000 (0000ms, 681164ms total)
T4680 27578:210 JLINK_ReadReg(FPS7)  returns 0x00000000 (0000ms, 681164ms total)
T4680 27578:210 JLINK_ReadReg(FPS8)  returns 0x00000000 (0000ms, 681164ms total)
T4680 27578:210 JLINK_ReadReg(FPS9)  returns 0x00000000 (0000ms, 681164ms total)
T4680 27578:210 JLINK_ReadReg(FPS10)  returns 0x00000000 (0000ms, 681164ms total)
T4680 27578:210 JLINK_ReadReg(FPS11)  returns 0x00000000 (0000ms, 681164ms total)
T4680 27578:210 JLINK_ReadReg(FPS12)  returns 0x00000000 (0000ms, 681164ms total)
T4680 27578:210 JLINK_ReadReg(FPS13)  returns 0x00000000 (0000ms, 681164ms total)
T4680 27578:210 JLINK_ReadReg(FPS14)  returns 0x00000000 (0001ms, 681165ms total)
T4680 27578:211 JLINK_ReadReg(FPS15)  returns 0x00000000 (0000ms, 681165ms total)
T4680 27578:211 JLINK_ReadReg(FPS16)  returns 0x00000000 (0000ms, 681165ms total)
T4680 27578:211 JLINK_ReadReg(FPS17)  returns 0x00000000 (0000ms, 681165ms total)
T4680 27578:211 JLINK_ReadReg(FPS18)  returns 0x00000000 (0000ms, 681165ms total)
T4680 27578:211 JLINK_ReadReg(FPS19)  returns 0x00000000 (0000ms, 681165ms total)
T4680 27578:211 JLINK_ReadReg(FPS20)  returns 0x00000000 (0000ms, 681165ms total)
T4680 27578:211 JLINK_ReadReg(FPS21)  returns 0x00000000 (0000ms, 681165ms total)
T4680 27578:211 JLINK_ReadReg(FPS22)  returns 0x00000000 (0000ms, 681165ms total)
T4680 27578:211 JLINK_ReadReg(FPS23)  returns 0x00000000 (0000ms, 681165ms total)
T4680 27578:211 JLINK_ReadReg(FPS24)  returns 0x00000000 (0000ms, 681165ms total)
T4680 27578:211 JLINK_ReadReg(FPS25)  returns 0x00000000 (0000ms, 681165ms total)
T4680 27578:211 JLINK_ReadReg(FPS26)  returns 0x00000000 (0000ms, 681165ms total)
T4680 27578:211 JLINK_ReadReg(FPS27)  returns 0x00000000 (0000ms, 681165ms total)
T4680 27578:211 JLINK_ReadReg(FPS28)  returns 0x00000000 (0000ms, 681165ms total)
T4680 27578:211 JLINK_ReadReg(FPS29)  returns 0x00000000 (0000ms, 681165ms total)
T4680 27578:211 JLINK_ReadReg(FPS30)  returns 0x00000000 (0000ms, 681165ms total)
T4680 27578:211 JLINK_ReadReg(FPS31)  returns 0x00000000 (0000ms, 681165ms total)
T4680 27578:605 JLINK_ReadMemEx(0x20002436, 0x0019 Bytes, ..., Flags = 0x02000000) -- CPU_ReadMem(128 bytes @ 0x20002400) -- Updating C cache (128 bytes @ 0x20002400) -- Read from C cache (25 bytes @ 0x20002436) - Data: 0F 00 04 20 00 01 C8 16 00 16 18 80 00 04 20 00 ...  returns 0x19 (0003ms, 681168ms total)
T4680 27578:615 JLINK_ReadMemEx(0x2000242C, 0x0002 Bytes, ..., Flags = 0x02000000) -- Read from C cache (2 bytes @ 0x2000242C) - Data: 00 04  returns 0x02 (0001ms, 681169ms total)
T4680 27578:616 JLINK_ReadMemEx(0x2000242C, 0x0002 Bytes, ..., Flags = 0x02000000) -- Read from C cache (2 bytes @ 0x2000242C) - Data: 00 04  returns 0x02 (0000ms, 681169ms total)
T4680 27578:616 JLINK_ReadMemEx(0x2000242C, 0x0002 Bytes, ..., Flags = 0x02000000) -- Read from C cache (2 bytes @ 0x2000242C) - Data: 00 04  returns 0x02 (0000ms, 681169ms total)
T4680 27578:629 JLINK_ReadMemEx(0x2000242A, 0x0002 Bytes, ..., Flags = 0x02000000) -- Read from C cache (2 bytes @ 0x2000242A) - Data: 00 04  returns 0x02 (0000ms, 681169ms total)
T4680 27578:637 JLINK_ReadMemEx(0x2000242A, 0x0002 Bytes, ..., Flags = 0x02000000) -- Read from C cache (2 bytes @ 0x2000242A) - Data: 00 04  returns 0x02 (0000ms, 681169ms total)
T4680 27578:638 JLINK_ReadMemEx(0x2000242A, 0x0002 Bytes, ..., Flags = 0x02000000) -- Read from C cache (2 bytes @ 0x2000242A) - Data: 00 04  returns 0x02 (0000ms, 681169ms total)
T4680 27578:656 JLINK_ReadMemEx(0x20002436, 0x0019 Bytes, ..., Flags = 0x02000000) -- Read from C cache (25 bytes @ 0x20002436) - Data: 0F 00 04 20 00 01 C8 16 00 16 18 80 00 04 20 00 ...  returns 0x19 (0000ms, 681169ms total)
T49C0 27578:923 JLINK_ReadMemEx(0x08000268, 0x0002 Bytes, ..., Flags = 0x02000000) -- CPU_ReadMem(64 bytes @ 0x08000240) -- Updating C cache (64 bytes @ 0x08000240) -- Read from C cache (2 bytes @ 0x08000268) - Data: 09 48  returns 0x02 (0001ms, 681170ms total)
T49C0 27578:924 JLINK_SetBPEx(Addr = 0x080136B8, Type = 0xFFFFFFF2)  returns 0x00000001 (0000ms, 681170ms total)
T49C0 27578:924 JLINK_SetBPEx(Addr = 0x0800C310, Type = 0xFFFFFFF2)  returns 0x00000002 (0000ms, 681170ms total)
T49C0 27578:924 JLINK_SetBPEx(Addr = 0x08003BA6, Type = 0xFFFFFFF2)  returns 0x00000003 (0000ms, 681170ms total)
T49C0 27578:924 JLINK_SetBPEx(Addr = 0x0800C2E8, Type = 0xFFFFFFF2)  returns 0x00000004 (0000ms, 681170ms total)
T49C0 27578:924 JLINK_SetBPEx(Addr = 0x0800C2D2, Type = 0xFFFFFFF2)  returns 0x00000005 (0000ms, 681170ms total)
T49C0 27578:924 JLINK_Go() -- CPU_WriteMem(4 bytes @ 0xE0002000) -- CPU_WriteMem(4 bytes @ 0xE0002000) -- CPU_WriteMem(4 bytes @ 0xE0002000) -- CPU_WriteMem(4 bytes @ 0xE0002000) -- CPU_WriteMem(4 bytes @ 0xE0002000) -- CPU_ReadMem(4 bytes @ 0xE0001000) -- CPU_WriteMem(4 bytes @ 0xE0002008) -- CPU_WriteMem(4 bytes @ 0xE000200C) -- CPU_WriteMem(4 bytes @ 0xE0002010) -- CPU_WriteMem(4 bytes @ 0xE0002014) -- CPU_WriteMem(4 bytes @ 0xE0002018) -- CPU_WriteMem(4 bytes @ 0xE000201C)
 -- CPU_WriteMem(4 bytes @ 0xE0001004) (0009ms, 681179ms total)
T49C0 27579:035 JLINK_IsHalted()  returns TRUE (0004ms, 681183ms total)
T49C0 27579:039 JLINK_Halt()  returns 0x00 (0001ms, 681180ms total)
T49C0 27579:040 JLINK_IsHalted()  returns TRUE (0000ms, 681180ms total)
T49C0 27579:040 JLINK_IsHalted()  returns TRUE (0000ms, 681180ms total)
T49C0 27579:040 JLINK_IsHalted()  returns TRUE (0000ms, 681180ms total)
T49C0 27579:040 JLINK_ReadReg(R15 (PC))  returns 0x080136B8 (0000ms, 681180ms total)
T49C0 27579:040 JLINK_ReadReg(XPSR)  returns 0x21000000 (0000ms, 681180ms total)
T49C0 27579:040 JLINK_ClrBPEx(BPHandle = 0x00000001)  returns 0x00 (0000ms, 681180ms total)
T49C0 27579:040 JLINK_ClrBPEx(BPHandle = 0x00000002)  returns 0x00 (0000ms, 681180ms total)
T49C0 27579:040 JLINK_ClrBPEx(BPHandle = 0x00000003)  returns 0x00 (0000ms, 681180ms total)
T49C0 27579:040 JLINK_ClrBPEx(BPHandle = 0x00000004)  returns 0x00 (0000ms, 681180ms total)
T49C0 27579:040 JLINK_ClrBPEx(BPHandle = 0x00000005)  returns 0x00 (0000ms, 681180ms total)
T49C0 27579:040 JLINK_ReadMemU32(0xE000ED30, 0x0001 Items, ...) -- CPU_ReadMem(4 bytes @ 0xE000ED30) - Data: 02 00 00 00  returns 1 (0001ms, 681181ms total)
T49C0 27579:041 JLINK_ReadMemU32(0xE0001028, 0x0001 Items, ...) -- CPU_ReadMem(4 bytes @ 0xE0001028) - Data: 00 00 00 00  returns 1 (0000ms, 681181ms total)
T49C0 27579:041 JLINK_ReadMemU32(0xE0001038, 0x0001 Items, ...) -- CPU_ReadMem(4 bytes @ 0xE0001038) - Data: 00 02 00 00  returns 1 (0001ms, 681182ms total)
T49C0 27579:042 JLINK_ReadMemU32(0xE0001048, 0x0001 Items, ...) -- CPU_ReadMem(4 bytes @ 0xE0001048) - Data: 00 00 00 00  returns 1 (0001ms, 681183ms total)
T49C0 27579:043 JLINK_ReadMemU32(0xE0001058, 0x0001 Items, ...) -- CPU_ReadMem(4 bytes @ 0xE0001058) - Data: 00 00 00 00  returns 1 (0001ms, 681184ms total)
T49C0 27579:044 JLINK_ReadReg(R0)  returns 0x20002B78 (0000ms, 681184ms total)
T49C0 27579:044 JLINK_ReadReg(R1)  returns 0x20002F78 (0000ms, 681184ms total)
T49C0 27579:044 JLINK_ReadReg(R2)  returns 0x20002F78 (0000ms, 681184ms total)
T49C0 27579:044 JLINK_ReadReg(R3)  returns 0x20002F78 (0000ms, 681184ms total)
T49C0 27579:044 JLINK_ReadReg(R4)  returns 0x00000000 (0000ms, 681184ms total)
T49C0 27579:044 JLINK_ReadReg(R5)  returns 0x20002B14 (0000ms, 681184ms total)
T49C0 27579:044 JLINK_ReadReg(R6)  returns 0x00000000 (0000ms, 681184ms total)
T49C0 27579:044 JLINK_ReadReg(R7)  returns 0x00000000 (0000ms, 681184ms total)
T49C0 27579:044 JLINK_ReadReg(R8)  returns 0x00000000 (0000ms, 681184ms total)
T49C0 27579:044 JLINK_ReadReg(R9)  returns 0x00000000 (0000ms, 681184ms total)
T49C0 27579:044 JLINK_ReadReg(R10)  returns 0x08015738 (0000ms, 681184ms total)
T49C0 27579:044 JLINK_ReadReg(R11)  returns 0x00000000 (0000ms, 681184ms total)
T49C0 27579:044 JLINK_ReadReg(R12)  returns 0x20002B54 (0000ms, 681184ms total)
T49C0 27579:044 JLINK_ReadReg(R13 (SP))  returns 0x20003778 (0000ms, 681184ms total)
T49C0 27579:044 JLINK_ReadReg(R14)  returns 0x08000257 (0000ms, 681184ms total)
T49C0 27579:044 JLINK_ReadReg(R15 (PC))  returns 0x080136B8 (0000ms, 681184ms total)
T49C0 27579:044 JLINK_ReadReg(XPSR)  returns 0x21000000 (0000ms, 681184ms total)
T49C0 27579:044 JLINK_ReadReg(MSP)  returns 0x20003778 (0000ms, 681184ms total)
T49C0 27579:044 JLINK_ReadReg(PSP)  returns 0x00000000 (0000ms, 681184ms total)
T49C0 27579:044 JLINK_ReadReg(CFBP)  returns 0x04000000 (0000ms, 681184ms total)
T49C0 27579:044 JLINK_ReadReg(FPSCR)  returns 0x03000000 (0008ms, 681192ms total)
T49C0 27579:052 JLINK_ReadReg(FPS0)  returns 0x00000000 (0000ms, 681192ms total)
T49C0 27579:052 JLINK_ReadReg(FPS1)  returns 0x00000000 (0000ms, 681192ms total)
T49C0 27579:052 JLINK_ReadReg(FPS2)  returns 0x00000000 (0000ms, 681192ms total)
T49C0 27579:052 JLINK_ReadReg(FPS3)  returns 0x00000000 (0000ms, 681192ms total)
T49C0 27579:052 JLINK_ReadReg(FPS4)  returns 0x00000000 (0000ms, 681192ms total)
T49C0 27579:052 JLINK_ReadReg(FPS5)  returns 0x00000000 (0000ms, 681192ms total)
T49C0 27579:052 JLINK_ReadReg(FPS6)  returns 0x00000000 (0000ms, 681192ms total)
T49C0 27579:052 JLINK_ReadReg(FPS7)  returns 0x00000000 (0000ms, 681192ms total)
T49C0 27579:052 JLINK_ReadReg(FPS8)  returns 0x00000000 (0000ms, 681192ms total)
T49C0 27579:052 JLINK_ReadReg(FPS9)  returns 0x00000000 (0000ms, 681192ms total)
T49C0 27579:052 JLINK_ReadReg(FPS10)  returns 0x00000000 (0000ms, 681192ms total)
T49C0 27579:052 JLINK_ReadReg(FPS11)  returns 0x00000000 (0000ms, 681192ms total)
T49C0 27579:052 JLINK_ReadReg(FPS12)  returns 0x00000000 (0000ms, 681192ms total)
T49C0 27579:052 JLINK_ReadReg(FPS13)  returns 0x00000000 (0000ms, 681192ms total)
T49C0 27579:052 JLINK_ReadReg(FPS14)  returns 0x00000000 (0000ms, 681192ms total)
T49C0 27579:052 JLINK_ReadReg(FPS15)  returns 0x00000000 (0000ms, 681192ms total)
T49C0 27579:052 JLINK_ReadReg(FPS16)  returns 0x00000000 (0000ms, 681192ms total)
T49C0 27579:052 JLINK_ReadReg(FPS17)  returns 0x00000000 (0000ms, 681192ms total)
T49C0 27579:052 JLINK_ReadReg(FPS18)  returns 0x00000000 (0000ms, 681192ms total)
T49C0 27579:052 JLINK_ReadReg(FPS19)  returns 0x00000000 (0000ms, 681192ms total)
T49C0 27579:052 JLINK_ReadReg(FPS20)  returns 0x00000000 (0000ms, 681192ms total)
T49C0 27579:052 JLINK_ReadReg(FPS21)  returns 0x00000000 (0000ms, 681192ms total)
T49C0 27579:052 JLINK_ReadReg(FPS22)  returns 0x00000000 (0000ms, 681192ms total)
T49C0 27579:052 JLINK_ReadReg(FPS23)  returns 0x00000000 (0000ms, 681192ms total)
T49C0 27579:052 JLINK_ReadReg(FPS24)  returns 0x00000000 (0000ms, 681192ms total)
T49C0 27579:052 JLINK_ReadReg(FPS25)  returns 0x00000000 (0000ms, 681192ms total)
T49C0 27579:052 JLINK_ReadReg(FPS26)  returns 0x00000000 (0000ms, 681192ms total)
T49C0 27579:052 JLINK_ReadReg(FPS27)  returns 0x00000000 (0000ms, 681192ms total)
T49C0 27579:052 JLINK_ReadReg(FPS28)  returns 0x00000000 (0000ms, 681192ms total)
T49C0 27579:052 JLINK_ReadReg(FPS29)  returns 0x00000000 (0000ms, 681192ms total)
T49C0 27579:052 JLINK_ReadReg(FPS30)  returns 0x00000000 (0000ms, 681192ms total)
T49C0 27579:052 JLINK_ReadReg(FPS31)  returns 0x00000000 (0000ms, 681192ms total)
T4680 27579:060 JLINK_ReadMemEx(0x20002436, 0x0019 Bytes, ..., Flags = 0x02000000) -- CPU_ReadMem(128 bytes @ 0x20002400) -- Updating C cache (128 bytes @ 0x20002400) -- Read from C cache (25 bytes @ 0x20002436) - Data: 00 00 00 00 00 00 00 00 00 00 00 00 00 00 00 00 ...  returns 0x19 (0002ms, 681194ms total)
T4680 27579:063 JLINK_ReadMemEx(0x2000242C, 0x0002 Bytes, ..., Flags = 0x02000000) -- Read from C cache (2 bytes @ 0x2000242C) - Data: 00 00  returns 0x02 (0000ms, 681194ms total)
T4680 27579:063 JLINK_ReadMemEx(0x2000242A, 0x0002 Bytes, ..., Flags = 0x02000000) -- Read from C cache (2 bytes @ 0x2000242A) - Data: 00 00  returns 0x02 (0000ms, 681194ms total)
T4680 27579:067 JLINK_ReadMemEx(0x20002436, 0x0019 Bytes, ..., Flags = 0x02000000) -- Read from C cache (25 bytes @ 0x20002436) - Data: 00 00 00 00 00 00 00 00 00 00 00 00 00 00 00 00 ...  returns 0x19 (0000ms, 681194ms total)
T49C0 27580:686 JLINK_ReadMemEx(0x080136B8, 0x0002 Bytes, ..., Flags = 0x02000000) -- CPU_ReadMem(64 bytes @ 0x08013680) -- Updating C cache (64 bytes @ 0x08013680) -- Read from C cache (2 bytes @ 0x080136B8) - Data: EF F7  returns 0x02 (0002ms, 681196ms total)
T49C0 27580:688 JLINK_SetBPEx(Addr = 0x0800C310, Type = 0xFFFFFFF2)  returns 0x00000006 (0000ms, 681196ms total)
T49C0 27580:688 JLINK_SetBPEx(Addr = 0x08003BA6, Type = 0xFFFFFFF2)  returns 0x00000007 (0000ms, 681196ms total)
T49C0 27580:688 JLINK_SetBPEx(Addr = 0x0800C2E8, Type = 0xFFFFFFF2)  returns 0x00000008 (0000ms, 681196ms total)
T49C0 27580:688 JLINK_SetBPEx(Addr = 0x0800C2D2, Type = 0xFFFFFFF2)  returns 0x00000009 (0000ms, 681196ms total)
T49C0 27580:688 JLINK_Go() -- CPU_WriteMem(4 bytes @ 0xE0002000) -- CPU_WriteMem(4 bytes @ 0xE0002000) -- CPU_WriteMem(4 bytes @ 0xE0002000) -- CPU_WriteMem(4 bytes @ 0xE0002000) -- CPU_ReadMem(4 bytes @ 0xE0001000) -- CPU_WriteMem(4 bytes @ 0xE0002008) -- CPU_WriteMem(4 bytes @ 0xE000200C) -- CPU_WriteMem(4 bytes @ 0xE0002010) -- CPU_WriteMem(4 bytes @ 0xE0002014) -- CPU_WriteMem(4 bytes @ 0xE0002018) (0007ms, 681203ms total)
T49C0 27580:796 JLINK_IsHalted()  returns FALSE (0000ms, 681203ms total)
T49C0 27580:897 JLINK_IsHalted()  returns TRUE (0005ms, 681208ms total)
T49C0 27580:902 JLINK_Halt()  returns 0x00 (0000ms, 681203ms total)
T49C0 27580:902 JLINK_IsHalted()  returns TRUE (0000ms, 681203ms total)
T49C0 27580:902 JLINK_IsHalted()  returns TRUE (0000ms, 681203ms total)
T49C0 27580:902 JLINK_IsHalted()  returns TRUE (0000ms, 681203ms total)
T49C0 27580:902 JLINK_ReadReg(R15 (PC))  returns 0x0800C2D2 (0000ms, 681203ms total)
T49C0 27580:902 JLINK_ReadReg(XPSR)  returns 0x41000036 (0000ms, 681203ms total)
T49C0 27580:902 JLINK_ClrBPEx(BPHandle = 0x00000006)  returns 0x00 (0000ms, 681203ms total)
T49C0 27580:902 JLINK_ClrBPEx(BPHandle = 0x00000007)  returns 0x00 (0000ms, 681203ms total)
T49C0 27580:902 JLINK_ClrBPEx(BPHandle = 0x00000008)  returns 0x00 (0000ms, 681203ms total)
T49C0 27580:902 JLINK_ClrBPEx(BPHandle = 0x00000009)  returns 0x00 (0000ms, 681203ms total)
T49C0 27580:902 JLINK_ReadMemU32(0xE000ED30, 0x0001 Items, ...) -- CPU_ReadMem(4 bytes @ 0xE000ED30) - Data: 02 00 00 00  returns 1 (0001ms, 681204ms total)
T49C0 27580:903 JLINK_ReadMemU32(0xE0001028, 0x0001 Items, ...) -- CPU_ReadMem(4 bytes @ 0xE0001028) - Data: 00 00 00 00  returns 1 (0001ms, 681205ms total)
T49C0 27580:904 JLINK_ReadMemU32(0xE0001038, 0x0001 Items, ...) -- CPU_ReadMem(4 bytes @ 0xE0001038) - Data: 00 02 00 00  returns 1 (0001ms, 681206ms total)
T49C0 27580:905 JLINK_ReadMemU32(0xE0001048, 0x0001 Items, ...) -- CPU_ReadMem(4 bytes @ 0xE0001048) - Data: 00 00 00 00  returns 1 (0000ms, 681206ms total)
T49C0 27580:905 JLINK_ReadMemU32(0xE0001058, 0x0001 Items, ...) -- CPU_ReadMem(4 bytes @ 0xE0001058) - Data: 00 00 00 00  returns 1 (0001ms, 681207ms total)
T49C0 27580:906 JLINK_ReadReg(R0)  returns 0x00000000 (0000ms, 681207ms total)
T49C0 27580:906 JLINK_ReadReg(R1)  returns 0x00000424 (0000ms, 681207ms total)
T49C0 27580:906 JLINK_ReadReg(R2)  returns 0x008ECAB0 (0000ms, 681207ms total)
T49C0 27580:906 JLINK_ReadReg(R3)  returns 0x00005207 (0000ms, 681207ms total)
T49C0 27580:906 JLINK_ReadReg(R4)  returns 0x000003E8 (0000ms, 681207ms total)
T49C0 27580:906 JLINK_ReadReg(R5)  returns 0x0001B2F0 (0001ms, 681208ms total)
T49C0 27580:907 JLINK_ReadReg(R6)  returns 0x00000000 (0000ms, 681208ms total)
T49C0 27580:907 JLINK_ReadReg(R7)  returns 0x00000000 (0000ms, 681208ms total)
T49C0 27580:907 JLINK_ReadReg(R8)  returns 0x00000000 (0000ms, 681208ms total)
T49C0 27580:907 JLINK_ReadReg(R9)  returns 0x00000000 (0000ms, 681208ms total)
T49C0 27580:907 JLINK_ReadReg(R10)  returns 0x08015738 (0000ms, 681208ms total)
T49C0 27580:907 JLINK_ReadReg(R11)  returns 0x00000000 (0000ms, 681208ms total)
T49C0 27580:907 JLINK_ReadReg(R12)  returns 0x00000150 (0000ms, 681208ms total)
T49C0 27580:907 JLINK_ReadReg(R13 (SP))  returns 0x200036E8 (0000ms, 681208ms total)
T49C0 27580:907 JLINK_ReadReg(R14)  returns 0x0800C2B1 (0000ms, 681208ms total)
T49C0 27580:907 JLINK_ReadReg(R15 (PC))  returns 0x0800C2D2 (0000ms, 681208ms total)
T49C0 27580:907 JLINK_ReadReg(XPSR)  returns 0x41000036 (0000ms, 681208ms total)
T49C0 27580:907 JLINK_ReadReg(MSP)  returns 0x200036E8 (0000ms, 681208ms total)
T49C0 27580:907 JLINK_ReadReg(PSP)  returns 0x00000000 (0000ms, 681208ms total)
T49C0 27580:907 JLINK_ReadReg(CFBP)  returns 0x00000000 (0000ms, 681208ms total)
T49C0 27580:907 JLINK_ReadReg(FPSCR)  returns 0x03000000 (0008ms, 681216ms total)
T49C0 27580:915 JLINK_ReadReg(FPS0)  returns 0x00000000 (0000ms, 681216ms total)
T49C0 27580:915 JLINK_ReadReg(FPS1)  returns 0x00000000 (0000ms, 681216ms total)
T49C0 27580:915 JLINK_ReadReg(FPS2)  returns 0x00000000 (0000ms, 681216ms total)
T49C0 27580:915 JLINK_ReadReg(FPS3)  returns 0x00000000 (0000ms, 681216ms total)
T49C0 27580:915 JLINK_ReadReg(FPS4)  returns 0x00000000 (0000ms, 681216ms total)
T49C0 27580:915 JLINK_ReadReg(FPS5)  returns 0x00000000 (0000ms, 681216ms total)
T49C0 27580:915 JLINK_ReadReg(FPS6)  returns 0x00000000 (0000ms, 681216ms total)
T49C0 27580:915 JLINK_ReadReg(FPS7)  returns 0x00000000 (0000ms, 681216ms total)
T49C0 27580:915 JLINK_ReadReg(FPS8)  returns 0x00000000 (0000ms, 681216ms total)
T49C0 27580:915 JLINK_ReadReg(FPS9)  returns 0x00000000 (0001ms, 681217ms total)
T49C0 27580:916 JLINK_ReadReg(FPS10)  returns 0x00000000 (0000ms, 681217ms total)
T49C0 27580:916 JLINK_ReadReg(FPS11)  returns 0x00000000 (0000ms, 681217ms total)
T49C0 27580:916 JLINK_ReadReg(FPS12)  returns 0x00000000 (0000ms, 681217ms total)
T49C0 27580:916 JLINK_ReadReg(FPS13)  returns 0x00000000 (0000ms, 681217ms total)
T49C0 27580:916 JLINK_ReadReg(FPS14)  returns 0x00000000 (0000ms, 681217ms total)
T49C0 27580:916 JLINK_ReadReg(FPS15)  returns 0x00000000 (0000ms, 681217ms total)
T49C0 27580:916 JLINK_ReadReg(FPS16)  returns 0x00000000 (0000ms, 681217ms total)
T49C0 27580:916 JLINK_ReadReg(FPS17)  returns 0x00000000 (0000ms, 681217ms total)
T49C0 27580:916 JLINK_ReadReg(FPS18)  returns 0x00000000 (0000ms, 681217ms total)
T49C0 27580:916 JLINK_ReadReg(FPS19)  returns 0x00000000 (0000ms, 681217ms total)
T49C0 27580:916 JLINK_ReadReg(FPS20)  returns 0x00000000 (0000ms, 681217ms total)
T49C0 27580:916 JLINK_ReadReg(FPS21)  returns 0x00000000 (0000ms, 681217ms total)
T49C0 27580:916 JLINK_ReadReg(FPS22)  returns 0x00000000 (0000ms, 681217ms total)
T49C0 27580:916 JLINK_ReadReg(FPS23)  returns 0x00000000 (0000ms, 681217ms total)
T49C0 27580:916 JLINK_ReadReg(FPS24)  returns 0x00000000 (0000ms, 681217ms total)
T49C0 27580:916 JLINK_ReadReg(FPS25)  returns 0x00000000 (0000ms, 681217ms total)
T49C0 27580:916 JLINK_ReadReg(FPS26)  returns 0x00000000 (0000ms, 681217ms total)
T49C0 27580:916 JLINK_ReadReg(FPS27)  returns 0x00000000 (0000ms, 681217ms total)
T49C0 27580:917 JLINK_ReadReg(FPS28)  returns 0x00000000 (0000ms, 681218ms total)
T49C0 27580:917 JLINK_ReadReg(FPS29)  returns 0x00000000 (0000ms, 681218ms total)
T49C0 27580:917 JLINK_ReadReg(FPS30)  returns 0x00000000 (0000ms, 681218ms total)
T49C0 27580:917 JLINK_ReadReg(FPS31)  returns 0x00000000 (0000ms, 681218ms total)
T4680 27580:918 JLINK_ReadMemEx(0x200036EC, 0x0004 Bytes, ..., Flags = 0x02000000) -- CPU_ReadMem(64 bytes @ 0x200036C0) -- Updating C cache (64 bytes @ 0x200036C0) -- Read from C cache (4 bytes @ 0x200036EC) - Data: E9 FF FF FF  returns 0x04 (0001ms, 681219ms total)
T4680 27580:919 JLINK_ReadMemEx(0x20003708, 0x0004 Bytes, ..., Flags = 0x02000000) -- CPU_ReadMem(64 bytes @ 0x20003700) -- Updating C cache (64 bytes @ 0x20003700) -- Read from C cache (4 bytes @ 0x20003708) - Data: 8A 60 00 08  returns 0x04 (0002ms, 681221ms total)
T4680 27580:921 JLINK_ReadMemEx(0x2000370C, 0x0004 Bytes, ..., Flags = 0x02000000) -- Read from C cache (4 bytes @ 0x2000370C) - Data: 00 02 00 21  returns 0x04 (0000ms, 681221ms total)
T4680 27580:921 JLINK_ReadMemEx(0x20003704, 0x0004 Bytes, ..., Flags = 0x02000000) -- Read from C cache (4 bytes @ 0x20003704) - Data: C3 44 00 08  returns 0x04 (0000ms, 681221ms total)
T4680 27580:921 JLINK_ReadMemEx(0xE000ED28, 0x0004 Bytes, ..., Flags = 0x02000000) -- CPU_ReadMem(4 bytes @ 0xE000ED28) - Data: 00 00 00 00  returns 0x04 (0001ms, 681222ms total)
T4680 27580:923 JLINK_ReadMemEx(0x20003754, 0x0004 Bytes, ..., Flags = 0x02000000) -- CPU_ReadMem(64 bytes @ 0x20003740) -- Updating C cache (64 bytes @ 0x20003740) -- Read from C cache (4 bytes @ 0x20003754) - Data: A0 86 01 00  returns 0x04 (0001ms, 681223ms total)
T4680 27580:924 JLINK_ReadMemEx(0x20003758, 0x0004 Bytes, ..., Flags = 0x02000000) -- Read from C cache (4 bytes @ 0x20003758) - Data: 00 00 00 00  returns 0x04 (0000ms, 681223ms total)
T4680 27580:926 JLINK_ReadMemEx(0x20000334, 0x0001 Bytes, ..., Flags = 0x02000000) -- CPU_ReadMem(64 bytes @ 0x20000300) -- Updating C cache (64 bytes @ 0x20000300) -- Read from C cache (1 bytes @ 0x20000334) - Data: 00  returns 0x01 (0001ms, 681224ms total)
T4680 27580:928 JLINK_ReadMemEx(0x20000334, 0x0001 Bytes, ..., Flags = 0x02000000) -- Read from C cache (1 bytes @ 0x20000334) - Data: 00  returns 0x01 (0000ms, 681224ms total)
T4680 27580:928 JLINK_ReadMemEx(0x20002436, 0x0019 Bytes, ..., Flags = 0x02000000) -- CPU_ReadMem(128 bytes @ 0x20002400) -- Updating C cache (128 bytes @ 0x20002400) -- Read from C cache (25 bytes @ 0x20002436) - Data: 00 00 00 00 00 00 00 00 00 00 00 00 00 00 00 00 ...  returns 0x19 (0002ms, 681226ms total)
T4680 27580:930 JLINK_ReadMemEx(0x2000242C, 0x0002 Bytes, ..., Flags = 0x02000000) -- Read from C cache (2 bytes @ 0x2000242C) - Data: 00 00  returns 0x02 (0000ms, 681226ms total)
T4680 27580:931 JLINK_ReadMemEx(0x2000242A, 0x0002 Bytes, ..., Flags = 0x02000000) -- Read from C cache (2 bytes @ 0x2000242A) - Data: 00 00  returns 0x02 (0000ms, 681226ms total)
T4680 27580:933 JLINK_ReadMemEx(0x20002436, 0x0019 Bytes, ..., Flags = 0x02000000) -- Read from C cache (25 bytes @ 0x20002436) - Data: 00 00 00 00 00 00 00 00 00 00 00 00 00 00 00 00 ...  returns 0x19 (0000ms, 681226ms total)
T49C0 27582:094 JLINK_ReadMemEx(0x0800C2D2, 0x0002 Bytes, ..., Flags = 0x02000000) -- CPU_ReadMem(64 bytes @ 0x0800C2C0) -- Updating C cache (64 bytes @ 0x0800C2C0) -- Read from C cache (2 bytes @ 0x0800C2D2) - Data: 40 F2  returns 0x02 (0001ms, 681227ms total)
T49C0 27582:095 JLINK_Step() -- Read from C cache (2 bytes @ 0x0800C2D2) -- CPU_ReadMem(4 bytes @ 0xE000ED18) -- CPU_WriteMem(4 bytes @ 0xE000ED18) -- CPU_ReadMem(4 bytes @ 0xE000ED18) -- CPU_WriteMem(4 bytes @ 0xE000ED18) -- CPU_ReadMem(4 bytes @ 0xE0001004) -- Read from C cache (2 bytes @ 0x0800C2D4) -- Simulated  returns 0x00 (0004ms, 681231ms total)
T49C0 27582:099 JLINK_ReadReg(R15 (PC))  returns 0x0800C2D6 (0000ms, 681231ms total)
T49C0 27582:099 JLINK_ReadReg(XPSR)  returns 0x41000036 (0000ms, 681231ms total)
T49C0 27582:099 JLINK_SetBPEx(Addr = 0x0800C310, Type = 0xFFFFFFF2)  returns 0x0000000A (0000ms, 681231ms total)
T49C0 27582:099 JLINK_SetBPEx(Addr = 0x08003BA6, Type = 0xFFFFFFF2)  returns 0x0000000B (0000ms, 681231ms total)
T49C0 27582:099 JLINK_SetBPEx(Addr = 0x0800C2E8, Type = 0xFFFFFFF2)  returns 0x0000000C (0000ms, 681231ms total)
T49C0 27582:099 JLINK_SetBPEx(Addr = 0x0800C2D2, Type = 0xFFFFFFF2)  returns 0x0000000D (0000ms, 681231ms total)
T49C0 27582:099 JLINK_Go() -- CPU_WriteMem(4 bytes @ 0xE0002000) -- CPU_WriteMem(4 bytes @ 0xE0002000) -- CPU_WriteMem(4 bytes @ 0xE0002000) -- CPU_WriteMem(4 bytes @ 0xE0002000) -- CPU_ReadMem(4 bytes @ 0xE0001000) -- CPU_WriteMem(4 bytes @ 0xE0001004) (0006ms, 681237ms total)
T49C0 27582:206 JLINK_IsHalted()  returns TRUE (0005ms, 681242ms total)
T49C0 27582:211 JLINK_Halt()  returns 0x00 (0000ms, 681237ms total)
T49C0 27582:211 JLINK_IsHalted()  returns TRUE (0000ms, 681237ms total)
T49C0 27582:211 JLINK_IsHalted()  returns TRUE (0000ms, 681237ms total)
T49C0 27582:211 JLINK_IsHalted()  returns TRUE (0000ms, 681237ms total)
T49C0 27582:211 JLINK_ReadReg(R15 (PC))  returns 0x0800C2E8 (0000ms, 681237ms total)
T49C0 27582:211 JLINK_ReadReg(XPSR)  returns 0x81000036 (0000ms, 681237ms total)
T49C0 27582:211 JLINK_ClrBPEx(BPHandle = 0x0000000A)  returns 0x00 (0000ms, 681237ms total)
T49C0 27582:211 JLINK_ClrBPEx(BPHandle = 0x0000000B)  returns 0x00 (0000ms, 681237ms total)
T49C0 27582:211 JLINK_ClrBPEx(BPHandle = 0x0000000C)  returns 0x00 (0000ms, 681237ms total)
T49C0 27582:211 JLINK_ClrBPEx(BPHandle = 0x0000000D)  returns 0x00 (0000ms, 681237ms total)
T49C0 27582:211 JLINK_ReadMemU32(0xE000ED30, 0x0001 Items, ...) -- CPU_ReadMem(4 bytes @ 0xE000ED30) - Data: 02 00 00 00  returns 1 (0001ms, 681238ms total)
T49C0 27582:212 JLINK_ReadMemU32(0xE0001028, 0x0001 Items, ...) -- CPU_ReadMem(4 bytes @ 0xE0001028) - Data: 00 00 00 00  returns 1 (0001ms, 681239ms total)
T49C0 27582:213 JLINK_ReadMemU32(0xE0001038, 0x0001 Items, ...) -- CPU_ReadMem(4 bytes @ 0xE0001038) - Data: 00 02 00 00  returns 1 (0001ms, 681240ms total)
T49C0 27582:214 JLINK_ReadMemU32(0xE0001048, 0x0001 Items, ...) -- CPU_ReadMem(4 bytes @ 0xE0001048) - Data: 00 00 00 00  returns 1 (0000ms, 681240ms total)
T49C0 27582:214 JLINK_ReadMemU32(0xE0001058, 0x0001 Items, ...) -- CPU_ReadMem(4 bytes @ 0xE0001058) - Data: 00 00 00 00  returns 1 (0001ms, 681241ms total)
T49C0 27582:215 JLINK_ReadReg(R0)  returns 0xFFFFFFDF (0000ms, 681241ms total)
T49C0 27582:215 JLINK_ReadReg(R1)  returns 0x00000525 (0000ms, 681241ms total)
T49C0 27582:215 JLINK_ReadReg(R2)  returns 0x008ECAB0 (0000ms, 681241ms total)
T49C0 27582:215 JLINK_ReadReg(R3)  returns 0x00005207 (0000ms, 681241ms total)
T49C0 27582:215 JLINK_ReadReg(R4)  returns 0x000003E8 (0001ms, 681242ms total)
T49C0 27582:216 JLINK_ReadReg(R5)  returns 0x0001B2F0 (0000ms, 681242ms total)
T49C0 27582:216 JLINK_ReadReg(R6)  returns 0x00000000 (0000ms, 681242ms total)
T49C0 27582:216 JLINK_ReadReg(R7)  returns 0x00000000 (0000ms, 681242ms total)
T49C0 27582:216 JLINK_ReadReg(R8)  returns 0x00000000 (0000ms, 681242ms total)
T49C0 27582:216 JLINK_ReadReg(R9)  returns 0x00000000 (0000ms, 681242ms total)
T49C0 27582:216 JLINK_ReadReg(R10)  returns 0x08015738 (0000ms, 681242ms total)
T49C0 27582:216 JLINK_ReadReg(R11)  returns 0x00000000 (0000ms, 681242ms total)
T49C0 27582:216 JLINK_ReadReg(R12)  returns 0x00000150 (0000ms, 681242ms total)
T49C0 27582:216 JLINK_ReadReg(R13 (SP))  returns 0x200036E8 (0000ms, 681242ms total)
T49C0 27582:216 JLINK_ReadReg(R14)  returns 0x0800C2E9 (0000ms, 681242ms total)
T49C0 27582:216 JLINK_ReadReg(R15 (PC))  returns 0x0800C2E8 (0000ms, 681242ms total)
T49C0 27582:216 JLINK_ReadReg(XPSR)  returns 0x81000036 (0000ms, 681242ms total)
T49C0 27582:216 JLINK_ReadReg(MSP)  returns 0x200036E8 (0000ms, 681242ms total)
T49C0 27582:216 JLINK_ReadReg(PSP)  returns 0x00000000 (0000ms, 681242ms total)
T49C0 27582:216 JLINK_ReadReg(CFBP)  returns 0x00000000 (0000ms, 681242ms total)
T49C0 27582:217 JLINK_ReadReg(FPSCR)  returns 0x03000000 (0007ms, 681249ms total)
T49C0 27582:224 JLINK_ReadReg(FPS0)  returns 0x00000000 (0000ms, 681249ms total)
T49C0 27582:224 JLINK_ReadReg(FPS1)  returns 0x00000000 (0000ms, 681249ms total)
T49C0 27582:224 JLINK_ReadReg(FPS2)  returns 0x00000000 (0001ms, 681250ms total)
T49C0 27582:225 JLINK_ReadReg(FPS3)  returns 0x00000000 (0000ms, 681250ms total)
T49C0 27582:225 JLINK_ReadReg(FPS4)  returns 0x00000000 (0000ms, 681250ms total)
T49C0 27582:225 JLINK_ReadReg(FPS5)  returns 0x00000000 (0000ms, 681250ms total)
T49C0 27582:225 JLINK_ReadReg(FPS6)  returns 0x00000000 (0000ms, 681250ms total)
T49C0 27582:225 JLINK_ReadReg(FPS7)  returns 0x00000000 (0000ms, 681250ms total)
T49C0 27582:225 JLINK_ReadReg(FPS8)  returns 0x00000000 (0000ms, 681250ms total)
T49C0 27582:225 JLINK_ReadReg(FPS9)  returns 0x00000000 (0000ms, 681250ms total)
T49C0 27582:225 JLINK_ReadReg(FPS10)  returns 0x00000000 (0000ms, 681250ms total)
T49C0 27582:225 JLINK_ReadReg(FPS11)  returns 0x00000000 (0000ms, 681250ms total)
T49C0 27582:225 JLINK_ReadReg(FPS12)  returns 0x00000000 (0000ms, 681250ms total)
T49C0 27582:225 JLINK_ReadReg(FPS13)  returns 0x00000000 (0000ms, 681250ms total)
T49C0 27582:225 JLINK_ReadReg(FPS14)  returns 0x00000000 (0000ms, 681250ms total)
T49C0 27582:225 JLINK_ReadReg(FPS15)  returns 0x00000000 (0000ms, 681250ms total)
T49C0 27582:225 JLINK_ReadReg(FPS16)  returns 0x00000000 (0000ms, 681250ms total)
T49C0 27582:225 JLINK_ReadReg(FPS17)  returns 0x00000000 (0000ms, 681250ms total)
T49C0 27582:225 JLINK_ReadReg(FPS18)  returns 0x00000000 (0000ms, 681250ms total)
T49C0 27582:225 JLINK_ReadReg(FPS19)  returns 0x00000000 (0001ms, 681251ms total)
T49C0 27582:226 JLINK_ReadReg(FPS20)  returns 0x00000000 (0000ms, 681251ms total)
T49C0 27582:226 JLINK_ReadReg(FPS21)  returns 0x00000000 (0000ms, 681251ms total)
T49C0 27582:226 JLINK_ReadReg(FPS22)  returns 0x00000000 (0000ms, 681251ms total)
T49C0 27582:226 JLINK_ReadReg(FPS23)  returns 0x00000000 (0000ms, 681251ms total)
T49C0 27582:226 JLINK_ReadReg(FPS24)  returns 0x00000000 (0000ms, 681251ms total)
T49C0 27582:226 JLINK_ReadReg(FPS25)  returns 0x00000000 (0000ms, 681251ms total)
T49C0 27582:226 JLINK_ReadReg(FPS26)  returns 0x00000000 (0000ms, 681251ms total)
T49C0 27582:226 JLINK_ReadReg(FPS27)  returns 0x00000000 (0000ms, 681251ms total)
T49C0 27582:226 JLINK_ReadReg(FPS28)  returns 0x00000000 (0000ms, 681251ms total)
T49C0 27582:226 JLINK_ReadReg(FPS29)  returns 0x00000000 (0000ms, 681251ms total)
T49C0 27582:226 JLINK_ReadReg(FPS30)  returns 0x00000000 (0000ms, 681251ms total)
T49C0 27582:226 JLINK_ReadReg(FPS31)  returns 0x00000000 (0000ms, 681251ms total)
T4680 27582:227 JLINK_ReadMemEx(0x200036EC, 0x0004 Bytes, ..., Flags = 0x02000000) -- CPU_ReadMem(64 bytes @ 0x200036C0) -- Updating C cache (64 bytes @ 0x200036C0) -- Read from C cache (4 bytes @ 0x200036EC) - Data: E9 FF FF FF  returns 0x04 (0001ms, 681252ms total)
T4680 27582:228 JLINK_ReadMemEx(0x20003708, 0x0004 Bytes, ..., Flags = 0x02000000) -- CPU_ReadMem(64 bytes @ 0x20003700) -- Updating C cache (64 bytes @ 0x20003700) -- Read from C cache (4 bytes @ 0x20003708) - Data: 8A 60 00 08  returns 0x04 (0002ms, 681254ms total)
T4680 27582:230 JLINK_ReadMemEx(0x2000370C, 0x0004 Bytes, ..., Flags = 0x02000000) -- Read from C cache (4 bytes @ 0x2000370C) - Data: 00 02 00 21  returns 0x04 (0000ms, 681254ms total)
T4680 27582:230 JLINK_ReadMemEx(0x20003704, 0x0004 Bytes, ..., Flags = 0x02000000) -- Read from C cache (4 bytes @ 0x20003704) - Data: C3 44 00 08  returns 0x04 (0000ms, 681254ms total)
T4680 27582:230 JLINK_ReadMemEx(0xE000ED28, 0x0004 Bytes, ..., Flags = 0x02000000) -- CPU_ReadMem(4 bytes @ 0xE000ED28) - Data: 00 00 00 00  returns 0x04 (0000ms, 681254ms total)
T4680 27582:230 JLINK_ReadMemEx(0x20003754, 0x0004 Bytes, ..., Flags = 0x02000000) -- CPU_ReadMem(64 bytes @ 0x20003740) -- Updating C cache (64 bytes @ 0x20003740) -- Read from C cache (4 bytes @ 0x20003754) - Data: A0 86 01 00  returns 0x04 (0002ms, 681256ms total)
T4680 27582:232 JLINK_ReadMemEx(0x20003758, 0x0004 Bytes, ..., Flags = 0x02000000) -- Read from C cache (4 bytes @ 0x20003758) - Data: 00 00 00 00  returns 0x04 (0000ms, 681256ms total)
T4680 27582:232 JLINK_ReadMemEx(0x20000334, 0x0001 Bytes, ..., Flags = 0x02000000) -- CPU_ReadMem(64 bytes @ 0x20000300) -- Updating C cache (64 bytes @ 0x20000300) -- Read from C cache (1 bytes @ 0x20000334) - Data: 00  returns 0x01 (0001ms, 681257ms total)
T4680 27582:233 JLINK_ReadMemEx(0x20002436, 0x0019 Bytes, ..., Flags = 0x02000000) -- CPU_ReadMem(128 bytes @ 0x20002400) -- Updating C cache (128 bytes @ 0x20002400) -- Read from C cache (25 bytes @ 0x20002436) - Data: 00 00 00 00 00 00 00 00 00 00 00 00 00 00 00 00 ...  returns 0x19 (0003ms, 681260ms total)
T4680 27582:236 JLINK_ReadMemEx(0x2000242C, 0x0002 Bytes, ..., Flags = 0x02000000) -- Read from C cache (2 bytes @ 0x2000242C) - Data: 00 00  returns 0x02 (0000ms, 681260ms total)
T4680 27582:236 JLINK_ReadMemEx(0x2000242A, 0x0002 Bytes, ..., Flags = 0x02000000) -- Read from C cache (2 bytes @ 0x2000242A) - Data: 00 00  returns 0x02 (0000ms, 681260ms total)
T4680 27582:236 JLINK_ReadMemEx(0x20002436, 0x0019 Bytes, ..., Flags = 0x02000000) -- Read from C cache (25 bytes @ 0x20002436) - Data: 00 00 00 00 00 00 00 00 00 00 00 00 00 00 00 00 ...  returns 0x19 (0000ms, 681260ms total)
T49C0 27583:704 JLINK_ReadMemEx(0x0800C2E8, 0x0002 Bytes, ..., Flags = 0x02000000) -- CPU_ReadMem(64 bytes @ 0x0800C2C0) -- Updating C cache (64 bytes @ 0x0800C2C0) -- Read from C cache (2 bytes @ 0x0800C2E8) - Data: 0F 48  returns 0x02 (0001ms, 681261ms total)
T49C0 27583:705 JLINK_Step() -- Read from C cache (2 bytes @ 0x0800C2E8) -- CPU_ReadMem(4 bytes @ 0xE0001004) -- CPU_ReadMem(64 bytes @ 0x0800C300) -- Updating C cache (64 bytes @ 0x0800C300) -- Read from C cache (4 bytes @ 0x0800C328) -- Simulated  returns 0x00 (0003ms, 681264ms total)
T49C0 27583:708 JLINK_ReadReg(R15 (PC))  returns 0x0800C2EA (0000ms, 681264ms total)
T49C0 27583:708 JLINK_ReadReg(XPSR)  returns 0x81000036 (0000ms, 681264ms total)
T49C0 27583:708 JLINK_SetBPEx(Addr = 0x0800C310, Type = 0xFFFFFFF2)  returns 0x0000000E (0000ms, 681264ms total)
T49C0 27583:708 JLINK_SetBPEx(Addr = 0x08003BA6, Type = 0xFFFFFFF2)  returns 0x0000000F (0000ms, 681264ms total)
T49C0 27583:708 JLINK_SetBPEx(Addr = 0x0800C2E8, Type = 0xFFFFFFF2)  returns 0x00000010 (0000ms, 681264ms total)
T49C0 27583:708 JLINK_SetBPEx(Addr = 0x0800C2D2, Type = 0xFFFFFFF2)  returns 0x00000011 (0000ms, 681264ms total)
T49C0 27583:708 JLINK_Go() -- CPU_WriteMem(4 bytes @ 0xE0002000) -- CPU_WriteMem(4 bytes @ 0xE0002000) -- CPU_WriteMem(4 bytes @ 0xE0002000) -- CPU_WriteMem(4 bytes @ 0xE0002000) -- CPU_ReadMem(4 bytes @ 0xE0001000) -- CPU_WriteMem(4 bytes @ 0xE0001004) (0006ms, 681270ms total)
T49C0 27583:815 JLINK_IsHalted()  returns TRUE (0005ms, 681275ms total)
T49C0 27583:820 JLINK_Halt()  returns 0x00 (0000ms, 681270ms total)
T49C0 27583:820 JLINK_IsHalted()  returns TRUE (0000ms, 681270ms total)
T49C0 27583:820 JLINK_IsHalted()  returns TRUE (0000ms, 681270ms total)
T49C0 27583:820 JLINK_IsHalted()  returns TRUE (0000ms, 681270ms total)
T49C0 27583:820 JLINK_ReadReg(R15 (PC))  returns 0x0800C310 (0000ms, 681270ms total)
T49C0 27583:820 JLINK_ReadReg(XPSR)  returns 0x01000036 (0000ms, 681270ms total)
T49C0 27583:820 JLINK_ClrBPEx(BPHandle = 0x0000000E)  returns 0x00 (0000ms, 681270ms total)
T49C0 27583:820 JLINK_ClrBPEx(BPHandle = 0x0000000F)  returns 0x00 (0000ms, 681270ms total)
T49C0 27583:820 JLINK_ClrBPEx(BPHandle = 0x00000010)  returns 0x00 (0000ms, 681270ms total)
T49C0 27583:820 JLINK_ClrBPEx(BPHandle = 0x00000011)  returns 0x00 (0000ms, 681270ms total)
T49C0 27583:820 JLINK_ReadMemU32(0xE000ED30, 0x0001 Items, ...) -- CPU_ReadMem(4 bytes @ 0xE000ED30) - Data: 02 00 00 00  returns 1 (0001ms, 681271ms total)
T49C0 27583:821 JLINK_ReadMemU32(0xE0001028, 0x0001 Items, ...) -- CPU_ReadMem(4 bytes @ 0xE0001028) - Data: 00 00 00 00  returns 1 (0001ms, 681272ms total)
T49C0 27583:822 JLINK_ReadMemU32(0xE0001038, 0x0001 Items, ...) -- CPU_ReadMem(4 bytes @ 0xE0001038) - Data: 00 02 00 00  returns 1 (0000ms, 681272ms total)
T49C0 27583:822 JLINK_ReadMemU32(0xE0001048, 0x0001 Items, ...) -- CPU_ReadMem(4 bytes @ 0xE0001048) - Data: 00 00 00 00  returns 1 (0001ms, 681273ms total)
T49C0 27583:823 JLINK_ReadMemU32(0xE0001058, 0x0001 Items, ...) -- CPU_ReadMem(4 bytes @ 0xE0001058) - Data: 00 00 00 00  returns 1 (0001ms, 681274ms total)
T49C0 27583:824 JLINK_ReadReg(R0)  returns 0x00000001 (0000ms, 681274ms total)
T49C0 27583:824 JLINK_ReadReg(R1)  returns 0x20000334 (0000ms, 681274ms total)
T49C0 27583:824 JLINK_ReadReg(R2)  returns 0x00000000 (0000ms, 681274ms total)
T49C0 27583:824 JLINK_ReadReg(R3)  returns 0x00005207 (0000ms, 681274ms total)
T49C0 27583:824 JLINK_ReadReg(R4)  returns 0x000003E8 (0000ms, 681274ms total)
T49C0 27583:824 JLINK_ReadReg(R5)  returns 0x0001B2F0 (0000ms, 681274ms total)
T49C0 27583:824 JLINK_ReadReg(R6)  returns 0x00000000 (0000ms, 681274ms total)
T49C0 27583:824 JLINK_ReadReg(R7)  returns 0x00000000 (0000ms, 681274ms total)
T49C0 27583:824 JLINK_ReadReg(R8)  returns 0x00000000 (0000ms, 681274ms total)
T49C0 27583:824 JLINK_ReadReg(R9)  returns 0x00000000 (0000ms, 681274ms total)
T49C0 27583:824 JLINK_ReadReg(R10)  returns 0x08015738 (0000ms, 681274ms total)
T49C0 27583:824 JLINK_ReadReg(R11)  returns 0x00000000 (0000ms, 681274ms total)
T49C0 27583:825 JLINK_ReadReg(R12)  returns 0x00000150 (0000ms, 681275ms total)
T49C0 27583:825 JLINK_ReadReg(R13 (SP))  returns 0x200036E8 (0000ms, 681275ms total)
T49C0 27583:825 JLINK_ReadReg(R14)  returns 0x0800C2E9 (0000ms, 681275ms total)
T49C0 27583:825 JLINK_ReadReg(R15 (PC))  returns 0x0800C310 (0000ms, 681275ms total)
T49C0 27583:825 JLINK_ReadReg(XPSR)  returns 0x01000036 (0000ms, 681275ms total)
T49C0 27583:825 JLINK_ReadReg(MSP)  returns 0x200036E8 (0000ms, 681275ms total)
T49C0 27583:825 JLINK_ReadReg(PSP)  returns 0x00000000 (0000ms, 681275ms total)
